<Qucs Dataset 0.0.15>
<indep x 10>
  +5.00000000000e+00
  +1.00000000000e+01
  +1.50000000000e+01
  +2.00000000000e+01
  +2.50000000000e+01
  +3.00000000000e+01
  +3.50000000000e+01
  +4.00000000000e+01
  +4.50000000000e+01
  +5.00000000000e+01
</indep>
<dep V1.I x>
  -1.34285714286e+00
  -9.89473684211e-01
  -7.83333333333e-01
  -6.48275862069e-01
  -5.52941176471e-01
  -4.82051282051e-01
  -4.27272727273e-01
  -3.83673469388e-01
  -3.48148148148e-01
  -3.18644067797e-01
</dep>
<dep izeja.V x>
  +6.71428571429e+00
  +9.89473684211e+00
  +1.17500000000e+01
  +1.29655172414e+01
  +1.38235294118e+01
  +1.44615384615e+01
  +1.49545454545e+01
  +1.53469387755e+01
  +1.56666666667e+01
  +1.59322033898e+01
</dep>
<dep _net0.V x>
  +1.88000000000e+01
  +1.88000000000e+01
  +1.88000000000e+01
  +1.88000000000e+01
  +1.88000000000e+01
  +1.88000000000e+01
  +1.88000000000e+01
  +1.88000000000e+01
  +1.88000000000e+01
  +1.88000000000e+01
</dep>
